date Fri Nov 11 05:48:34.235405 PM 2020
base hex  timestamps absolute
internal events logged
Begin Triggerblock Fri Nov 11 05:48:34.253 PM 2020
 0.000000 Start of measurement
 0.000000 1  114             Rx   d 8 11 00 00 00 00 00 00 00
 0.000416 1  1B2             Rx   d 8 3F 00 3F 3F 00 00 00 00
 0.031266 1  1B0             Rx   d 8 05 20 50 06 00 00 08 E2
 0.050386 1  1B0             Rx   d 8 05 20 50 06 00 00 09 CD
 0.050865 1  2E0             Rx   d 8 90 00 80 08 00 00 85 E3
 0.090547 1  1B0             Rx   d 8 05 20 50 06 00 00 0B 93
 0.101125 1  114             Rx   d 8 11 00 00 00 00 00 00 00
 0.101971 1  1B2             Rx   d 8 3F 00 3F 3F 00 00 00 00
 0.131988 1  1B0             Rx   d 8 05 20 50 06 00 00 0D 71
 0.150747 1  114             Rx   d 8 11 00 00 00 00 00 00 00
 0.151086 1  1B2             Rx   d 8 3F 00 3F 3F 00 00 00 00
 0.190151 1  1B0             Rx   d 8 05 20 50 06 00 00 00 B5
 0.211875 1  1B0             Rx   d 8 05 20 50 06 00 00 01 9A
 0.231252 1  1B0             Rx   d 8 05 20 50 06 00 00 02 EB
 0.270063 1  1B0             Rx   d 8 05 20 50 06 00 00 04 09
 0.301272 1  1B2             Rx   d 8 3F 00 3F 3F 00 00 00 00
 0.350745 1  1B0             Rx   d 8 05 20 50 06 00 00 08 E2
 0.351234 1  1B2             Rx   d 8 3F 00 3F 3F 00 00 00 00
 0.370411 1  1B0             Rx   d 8 05 20 50 06 00 00 09 CD
 0.400264 1  1B2             Rx   d 8 3F 00 3F 3F 00 00 00 00
 0.431277 1  1B0             Rx   d 8 05 20 50 06 00 00 0C 5E
 0.470128 1  1B0             Rx   d 8 05 20 50 06 00 00 0E 00
 0.510550 1  1B0             Rx   d 8 05 20 50 06 00 00 00 B5
 0.531981 1  1B0             Rx   d 8 05 20 50 06 00 00 01 9A
 0.599990 1  114             Rx   d 8 11 00 00 00 00 00 00 00
 0.601966 1  1B2             Rx   d 8 3F 00 3F 3F 00 00 00 00
 0.611175 1  1B0             Rx   d 8 05 20 50 06 00 00 05 26
 0.631258 1  1B0             Rx   d 8 05 20 50 06 00 00 06 57
 0.650426 1  114             Rx   d 8 11 00 00 00 00 00 00 00
 0.650956 1  1B2             Rx   d 8 3F 00 3F 3F 00 00 00 00
 0.671976 1  1B0             Rx   d 8 05 20 50 06 00 00 08 E2
 0.701051 1  114             Rx   d 8 11 00 00 00 00 00 00 00
 0.701969 1  1B2             Rx   d 8 3F 00 3F 3F 00 00 00 00
 0.730109 1  1B0             Rx   d 8 05 20 50 06 00 00 0B 93
 0.750583 1  1B0             Rx   d 8 05 20 50 06 00 00 0C 5E
 0.751368 1  114             Rx   d 8 11 00 00 00 00 00 00 00
 0.770440 1  1B0             Rx   d 8 05 20 50 06 00 00 0D 71
 0.790191 1  1B0             Rx   d 8 05 20 50 06 00 00 0E 00
 0.801989 1  1B2             Rx   d 8 3F 00 3F 3F 00 00 00 00
 0.811976 1  1B0             Rx   d 8 05 20 50 06 00 00 0F 2F
 0.850302 1  1B0             Rx   d 8 05 20 50 06 00 00 01 9A
 0.850562 1  114             Rx   d 8 11 00 00 00 00 00 00 00
 0.850762 1  1B2             Rx   d 8 3F 00 3F 3F 00 00 00 00
 0.851242 1  2E0             Rx   d 8 90 00 80 08 00 00 8D B4
 0.890667 1  1B0             Rx   d 8 05 20 50 06 00 00 03 C4
 0.901165 1  114             Rx   d 8 11 00 00 00 00 00 00 00
 0.901417 1  1B2             Rx   d 8 3F 00 3F 3F 00 00 00 00
 0.910623 1  1B0             Rx   d 8 05 20 50 06 00 00 04 09
 0.950703 1  1B0             Rx   d 8 05 20 50 06 00 00 06 57
 0.951365 1  114             Rx   d 8 11 00 00 00 00 00 00 00
 0.970523 1  1B0             Rx   d 8 05 20 50 06 00 00 07 78
 0.990723 1  1B0             Rx   d 8 05 20 50 06 00 00 08 E2
 1.000126 1  114             Rx   d 8 11 00 00 00 00 00 00 00
 1.011310 1  1B0             Rx   d 8 05 20 50 06 00 00 09 CD
 1.011646 1  79B             Rx   d 8 06 50 03 00 32 00 C8 AA
 1.050356 1  1B0             Rx   d 8 05 20 50 06 00 00 0B 93
 1.051275 1  114             Rx   d 8 11 00 00 00 00 00 00 00
 1.070233 1  1B0             Rx   d 8 05 20 50 06 00 00 0C 5E
 1.090728 1  1B0             Rx   d 8 05 20 50 06 00 00 0D 71
 1.101276 1  114             Rx   d 8 11 00 00 00 00 00 00 00
 1.111979 1  1B0             Rx   d 8 05 20 50 06 00 00 0E 00
 1.130254 1  1B0             Rx   d 8 05 20 50 06 00 00 0F 2F
 1.151383 1  114             Rx   d 8 11 00 00 00 00 00 00 00
 1.151873 1  2E0             Rx   d 8 90 00 80 08 00 00 80 70
 1.170553 1  1B0             Rx   d 8 05 20 50 06 00 00 01 9A
 1.190358 1  1B0             Rx   d 8 05 20 50 06 00 00 02 EB
 1.200435 1  1B2             Rx   d 8 3F 00 3F 3F 00 00 00 00
 1.211437 1  1B0             Rx   d 8 05 20 50 06 00 00 03 C4
 1.250371 1  1B0             Rx   d 8 05 20 50 06 00 00 05 26
 1.251039 1  114             Rx   d 8 11 00 00 00 00 00 00 00
 1.290704 1  1B0             Rx   d 8 05 20 50 06 00 00 07 78
 1.301189 1  114             Rx   d 8 11 00 00 00 00 00 00 00
 1.301467 1  1B2             Rx   d 8 3F 00 3F 3F 00 00 00 00
 1.310665 1  1B0             Rx   d 8 05 20 50 06 00 00 08 E2
 1.330231 1  1B0             Rx   d 8 05 20 50 06 00 00 09 CD
 1.351333 1  114             Rx   d 8 11 00 00 00 00 00 00 00
 1.370460 1  1B0             Rx   d 8 05 20 50 06 00 00 0B 93
 1.390242 1  1B0             Rx   d 8 05 20 50 06 00 00 0C 5E
 1.400175 1  114             Rx   d 8 11 00 00 00 00 00 00 00
 1.400322 1  1B2             Rx   d 8 3F 00 3F 3F 00 00 00 00
 1.411234 1  1B0             Rx   d 8 05 20 50 06 00 00 0D 71
 1.450397 1  1B0             Rx   d 8 05 20 50 06 00 00 0F 2F
 1.451097 1  2E0             Rx   d 8 90 00 80 08 00 00 83 01
 1.470142 1  1B0             Rx   d 8 05 20 50 06 00 00 00 B5
 1.491353 1  1B0             Rx   d 8 05 20 50 06 00 00 01 9A
 1.501239 1  114             Rx   d 8 11 00 00 00 00 00 00 00
 1.501388 1  1B2             Rx   d 8 3F 00 3F 3F 00 00 00 00
 1.510679 1  1B0             Rx   d 8 05 20 50 06 00 00 02 EB
 1.530182 1  1B0             Rx   d 8 05 20 50 06 00 00 03 C4
 1.550740 1  1B0             Rx   d 8 05 20 50 06 00 00 04 09
 1.551435 1  2E0             Rx   d 8 90 00 80 08 00 00 84 CC
 1.571969 1  1B0             Rx   d 8 05 20 50 06 00 00 05 26
 1.600110 1  114             Rx   d 8 11 00 00 00 00 00 00 00
 1.601970 1  1B2             Rx   d 8 3F 00 3F 3F 00 00 00 00
 1.611285 1  1B0             Rx   d 8 05 20 50 06 00 00 07 78
 1.631343 1  1B0             Rx   d 8 05 20 50 06 00 00 08 E2
 1.650651 1  114             Rx   d 8 11 00 00 00 00 00 00 00
 1.650898 1  1B2             Rx   d 8 3F 00 3F 3F 00 00 00 00
 1.651172 1  2E0             Rx   d 8 90 00 80 08 00 00 85 E3
 1.690676 1  1B0             Rx   d 8 05 20 50 06 00 00 0B 93
 1.701248 1  114             Rx   d 8 11 00 00 00 00 00 00 00
 1.701393 1  1B2             Rx   d 8 3F 00 3F 3F 00 00 00 00
 1.732025 1  1B0             Rx   d 8 05 20 50 06 00 00 0D 71
 1.751227 1  1B2             Rx   d 8 3F 00 3F 3F 00 00 00 00
 1.751368 1  2E0             Rx   d 8 90 00 80 08 00 00 86 92
 1.800213 1  114             Rx   d 8 11 00 00 00 00 00 00 00
 1.800345 1  1B2             Rx   d 8 3F 00 3F 3F 00 00 00 00
 1.831401 1  1B0             Rx   d 8 05 20 50 06 00 00 02 EB
 1.850798 1  1B2             Rx   d 8 3F 00 3F 3F 00 00 00 00
 1.851035 1  2E0             Rx   d 8 90 00 80 08 00 00 87 BD
 1.901125 1  114             Rx   d 8 11 00 00 00 00 00 00 00
 1.901367 1  1B2             Rx   d 8 3F 00 3F 3F 00 00 00 00
 1.930226 1  1B0             Rx   d 8 05 20 50 06 00 00 07 78
 1.951020 1  114             Rx   d 8 11 00 00 00 00 00 00 00
 1.970459 1  1B0             Rx   d 8 05 20 50 06 00 00 09 CD
 1.990291 1  1B0             Rx   d 8 05 20 50 06 00 00 0A BC
 2.011401 1  1B0             Rx   d 8 05 20 50 06 00 00 0B 93
 2.031423 1  1B0             Rx   d 8 05 20 50 06 00 00 0C 5E
 2.051259 1  2E0             Rx   d 8 90 00 80 08 00 00 89 08
 2.091740 1  1B0             Rx   d 8 05 20 50 06 00 00 0F 2F
 2.101337 1  114             Rx   d 8 11 00 00 00 00 00 00 00
 2.110775 1  1B0             Rx   d 8 05 20 50 06 00 00 00 B5
 2.131976 1  1B0             Rx   d 8 05 20 50 06 00 00 01 9A
 2.151586 1  2E0             Rx   d 8 90 00 80 08 00 00 8A 79
 2.190450 1  1B0             Rx   d 8 05 20 50 06 00 00 04 09
 2.211489 1  1B0             Rx   d 8 05 20 50 06 00 00 05 26
 2.250530 1  1B0             Rx   d 8 05 20 50 06 00 00 07 78
 2.250785 1  114             Rx   d 8 11 00 00 00 00 00 00 00
 2.251208 1  1B2             Rx   d 8 3F 00 3F 3F 00 00 00 00
 2.290857 1  1B0             Rx   d 8 05 20 50 06 00 00 09 CD
 2.312007 1  1B0             Rx   d 8 05 20 50 06 00 00 0A BC
 2.350723 1  1B0             Rx   d 8 05 20 50 06 00 00 0C 5E
 2.351189 1  1B2             Rx   d 8 3F 00 3F 3F 00 00 00 00
 2.351432 1  2E0             Rx   d 8 90 00 80 08 00 00 8C 9B
 2.400160 1  114             Rx   d 8 11 00 00 00 00 00 00 00
 2.431438 1  1B0             Rx   d 8 05 20 50 06 00 00 00 B5
 2.450582 1  114             Rx   d 8 11 00 00 00 00 00 00 00
 2.450958 1  1B2             Rx   d 8 3F 00 3F 3F 00 00 00 00
 2.490746 1  1B0             Rx   d 8 05 20 50 06 00 00 03 C4
 2.510750 1  1B0             Rx   d 8 05 20 50 06 00 00 04 09
 2.550815 1  1B0             Rx   d 8 05 20 50 06 00 00 06 57
 2.551192 1  1B2             Rx   d 8 3F 00 3F 3F 00 00 00 00
 2.571964 1  1B0             Rx   d 8 05 20 50 06 00 00 07 78
 2.600288 1  114             Rx   d 8 11 00 00 00 00 00 00 00
 2.631966 1  1B0             Rx   d 8 05 20 50 06 00 00 0A BC
 2.651155 1  2E0             Rx   d 8 90 00 80 08 00 00 8F EA
 2.671969 1  1B0             Rx   d 8 05 20 50 06 00 00 0C 5E
 2.700491 1  114             Rx   d 8 11 00 00 00 00 00 00 00
 2.711966 1  1B0             Rx   d 8 05 20 50 06 00 00 0E 00
 2.751233 1  114             Rx   d 8 11 00 00 00 00 00 00 00
 2.770560 1  1B0             Rx   d 8 05 20 50 06 00 00 01 9A
 2.800233 1  114             Rx   d 8 11 00 00 00 00 00 00 00
 2.811406 1  1B0             Rx   d 8 05 20 50 06 00 00 03 C4
 2.850440 1  1B0             Rx   d 8 05 20 50 06 00 00 05 26
 2.850663 1  114             Rx   d 8 11 00 00 00 00 00 00 00
 2.850913 1  1B2             Rx   d 8 3F 00 3F 3F 00 00 00 00
 2.851154 1  2E0             Rx   d 8 90 00 80 08 00 00 81 5F
 2.890794 1  1B0             Rx   d 8 05 20 50 06 00 00 07 78
 2.901263 1  114             Rx   d 8 11 00 00 00 00 00 00 00
 2.901976 1  1B2             Rx   d 8 3F 00 3F 3F 00 00 00 00
 2.910709 1  1B0             Rx   d 8 05 20 50 06 00 00 08 E2
 2.930327 1  1B0             Rx   d 8 05 20 50 06 00 00 09 CD
 2.950774 1  1B0             Rx   d 8 05 20 50 06 00 00 0A BC
 2.951109 1  114             Rx   d 8 11 00 00 00 00 00 00 00
 2.951348 1  1B2             Rx   d 8 3F 00 3F 3F 00 00 00 00
 2.970563 1  1B0             Rx   d 8 05 20 50 06 00 00 0B 93
 2.990412 1  1B0             Rx   d 8 05 20 50 06 00 00 0C 5E
 3.000209 1  114             Rx   d 8 11 00 00 00 00 00 00 00
 3.000423 1  1B2             Rx   d 8 3F 00 3F 3F 00 00 00 00
 3.011534 1  1B0             Rx   d 8 05 20 50 06 00 00 0D 71
 3.031533 1  1B0             Rx   d 8 05 20 50 06 00 00 0E 00
 3.050954 1  1B0             Rx   d 8 05 20 50 06 00 00 0F 2F
 3.051433 1  114             Rx   d 8 11 00 00 00 00 00 00 00
 3.091705 1  1B0             Rx   d 8 05 20 50 06 00 00 01 9A
 3.100792 1  114             Rx   d 8 11 00 00 00 00 00 00 00
 3.100960 1  1B2             Rx   d 8 3F 00 3F 3F 00 00 00 00
 3.150951 1  1B0             Rx   d 8 05 20 50 06 00 00 04 09
 3.151170 1  114             Rx   d 8 11 00 00 00 00 00 00 00
 3.151434 1  1B2             Rx   d 8 3F 00 3F 3F 00 00 00 00
 3.171983 1  1B0             Rx   d 8 05 20 50 06 00 00 05 26
 3.200602 1  1B2             Rx   d 8 3F 00 3F 3F 00 00 00 00
 3.231684 1  1B0             Rx   d 8 05 20 50 06 00 00 08 E2
 3.252658 1  114             Rx   d 8 11 00 00 00 00 00 00 00
 3.252877 1  1B2             Rx   d 8 3F 00 3F 3F 00 00 00 00
 3.271337 1  1B0             Rx   d 8 05 20 50 06 00 00 0A BC
 3.300612 1  114             Rx   d 8 11 00 00 00 00 00 00 00
 3.310541 1  1B0             Rx   d 8 05 20 50 06 00 00 0C 5E
 3.350808 1  1B0             Rx   d 8 05 20 50 06 00 00 0E 00
 3.351972 1  2E0             Rx   d 8 90 00 80 08 00 00 86 92
 3.370604 1  1B0             Rx   d 8 05 20 50 06 00 00 0F 2F
 3.400283 1  114             Rx   d 8 11 00 00 00 00 00 00 00
 3.400487 1  1B2             Rx   d 8 3F 00 3F 3F 00 00 00 00
 3.431577 1  1B0             Rx   d 8 05 20 50 06 00 00 02 EB
 3.451005 1  1B2             Rx   d 8 3F 00 3F 3F 00 00 00 00
 3.491680 1  1B0             Rx   d 8 05 20 50 06 00 00 05 26
 3.510457 1  1B0             Rx   d 8 05 20 50 06 00 00 06 57
 3.530331 1  1B0             Rx   d 8 05 20 50 06 00 00 07 78
 3.551310 1  1B2             Rx   d 8 3F 00 3F 3F 00 00 00 00
 3.571965 1  1B0             Rx   d 8 05 20 50 06 00 00 09 CD
 3.600375 1  114             Rx   d 8 11 00 00 00 00 00 00 00
 3.611438 1  1B0             Rx   d 8 05 20 50 06 00 00 0B 93
 3.650563 1  1B0             Rx   d 8 05 20 50 06 00 00 0D 71
 3.651055 1  1B2             Rx   d 8 3F 00 3F 3F 00 00 00 00
 3.691694 1  1B0             Rx   d 8 05 20 50 06 00 00 0F 2F
 3.710454 1  1B0             Rx   d 8 05 20 50 06 00 00 00 B5
 3.750839 1  1B0             Rx   d 8 05 20 50 06 00 00 02 EB
 3.751882 1  2E0             Rx   d 8 90 00 80 08 00 00 8A 79
 3.770636 1  1B0             Rx   d 8 05 20 50 06 00 00 03 C4
 3.800315 1  114             Rx   d 8 11 00 00 00 00 00 00 00
 3.800530 1  1B2             Rx   d 8 3F 00 3F 3F 00 00 00 00
 3.850597 1  1B0             Rx   d 8 05 20 50 06 00 00 07 78
 3.851306 1  2E0             Rx   d 8 90 00 80 08 00 00 8B 56
 3.871290 1  1B0             Rx   d 8 05 20 50 06 00 00 08 E2
 3.900601 1  114             Rx   d 8 11 00 00 00 00 00 00 00
 3.910492 1  1B0             Rx   d 8 05 20 50 06 00 00 0A BC
 3.951342 1  1B2             Rx   d 8 3F 00 3F 3F 00 00 00 00
 3.951552 1  2E0             Rx   d 8 90 00 80 08 00 00 8C 9B
 4.000410 1  114             Rx   d 8 11 00 00 00 00 00 00 00
 4.011572 1  1B0             Rx   d 8 05 20 50 06 00 00 0F 2F
 4.050797 1  1B0             Rx   d 8 05 20 50 06 00 00 01 9A
 4.051443 1  2E0             Rx   d 8 90 00 80 08 00 00 8D B4
 4.071978 1  1B0             Rx   d 8 05 20 50 06 00 00 02 EB
 4.100796 1  114             Rx   d 8 11 00 00 00 00 00 00 00
 4.131977 1  1B0             Rx   d 8 05 20 50 06 00 00 05 26
 4.151426 1  114             Rx   d 8 11 00 00 00 00 00 00 00
 4.151804 1  1B2             Rx   d 8 3F 00 3F 3F 00 00 00 00
 4.170800 1  1B0             Rx   d 8 05 20 50 06 00 00 07 78
 4.200472 1  114             Rx   d 8 11 00 00 00 00 00 00 00
 4.231776 1  1B0             Rx   d 8 05 20 50 06 00 00 0A BC
 4.251830 1  2E0             Rx   d 8 90 00 80 08 00 00 8F EA
 4.291793 1  1B0             Rx   d 8 05 20 50 06 00 00 0D 71
 4.310597 1  1B0             Rx   d 8 05 20 50 06 00 00 0E 00
 4.370716 1  1B0             Rx   d 8 05 20 50 06 00 00 01 9A
 4.390530 1  1B0             Rx   d 8 05 20 50 06 00 00 02 EB
 4.411537 1  1B0             Rx   d 8 05 20 50 06 00 00 03 C4
 4.451062 1  1B2             Rx   d 8 3F 00 3F 3F 00 00 00 00
 4.471970 1  1B0             Rx   d 8 05 20 50 06 00 00 06 57
 4.500660 1  114             Rx   d 8 11 00 00 00 00 00 00 00
 4.530434 1  1B0             Rx   d 8 05 20 50 06 00 00 09 CD
 4.551409 1  1B2             Rx   d 8 3F 00 3F 3F 00 00 00 00
 4.571964 1  1B0             Rx   d 8 05 20 50 06 00 00 0B 93
 4.600607 1  114             Rx   d 8 11 00 00 00 00 00 00 00
 4.631654 1  1B0             Rx   d 8 05 20 50 06 00 00 0E 00
 4.651226 1  1B2             Rx   d 8 3F 00 3F 3F 00 00 00 00
 4.651972 1  2E0             Rx   d 8 90 00 80 08 00 00 83 01
 4.691790 1  1B0             Rx   d 8 05 20 50 06 00 00 01 9A
 4.701970 1  1B2             Rx   d 8 3F 00 3F 3F 00 00 00 00
 4.750953 1  1B0             Rx   d 8 05 20 50 06 00 00 04 09
 4.751421 1  1B2             Rx   d 8 3F 00 3F 3F 00 00 00 00
 4.751659 1  2E0             Rx   d 8 90 00 80 08 00 00 84 CC
 4.800408 1  114             Rx   d 8 11 00 00 00 00 00 00 00
 4.811573 1  1B0             Rx   d 8 05 20 50 06 00 00 07 78
 4.850902 1  114             Rx   d 8 11 00 00 00 00 00 00 00
 4.851388 1  2E0             Rx   d 8 90 00 80 08 00 00 85 E3
 4.891786 1  1B0             Rx   d 8 05 20 50 06 00 00 0B 93
 4.901969 1  1B2             Rx   d 8 3F 00 3F 3F 00 00 00 00
 4.930491 1  1B0             Rx   d 8 05 20 50 06 00 00 0D 71
 4.951449 1  1B2             Rx   d 8 3F 00 3F 3F 00 00 00 00
 4.951678 1  2E0             Rx   d 8 90 00 80 08 00 00 86 92
 5.000510 1  114             Rx   d 8 11 00 00 00 00 00 00 00
 5.000721 1  1B2             Rx   d 8 3F 00 3F 3F 00 00 00 00
 5.011896 1  79B             Rx   d 8 06 50 03 00 32 00 C8 AA
 5.050802 1  1B0             Rx   d 8 05 20 50 06 00 00 03 C4
 5.051503 1  2E0             Rx   d 8 90 00 80 08 00 00 87 BD
 5.091982 1  1B0             Rx   d 8 05 20 50 06 00 00 05 26
 5.111979 1  1B0             Rx   d 8 05 20 50 06 00 00 06 57
 5.151127 1  1B0             Rx   d 8 05 20 50 06 00 00 08 E2
 5.151465 1  114             Rx   d 8 11 00 00 00 00 00 00 00
 5.151987 1  1B2             Rx   d 8 3F 00 3F 3F 00 00 00 00
 5.170935 1  1B0             Rx   d 8 05 20 50 06 00 00 09 CD
 5.190678 1  1B0             Rx   d 8 05 20 50 06 00 00 0A BC
 5.200643 1  114             Rx   d 8 11 00 00 00 00 00 00 00
 5.201988 1  1B2             Rx   d 8 3F 00 3F 3F 00 00 00 00
 5.231990 1  1B0             Rx   d 8 05 20 50 06 00 00 0C 5E
 5.250955 1  1B0             Rx   d 8 05 20 50 06 00 00 0D 71
 5.251067 1  114             Rx   d 8 11 00 00 00 00 00 00 00
 5.251562 1  1B2             Rx   d 8 3F 00 3F 3F 00 00 00 00
 5.273735 1  1B0             Rx   d 8 05 20 50 06 00 00 0E 00
 5.300873 1  114             Rx   d 8 11 00 00 00 00 00 00 00
 5.301119 1  1B2             Rx   d 8 3F 00 3F 3F 00 00 00 00
 5.331140 1  1B0             Rx   d 8 05 20 50 06 00 00 01 9A
 5.351975 1  114             Rx   d 8 11 00 00 00 00 00 00 00
 5.371509 1  1B0             Rx   d 8 05 20 50 06 00 00 03 C4
 5.400441 1  114             Rx   d 8 11 00 00 00 00 00 00 00
 5.400681 1  1B2             Rx   d 8 3F 00 3F 3F 00 00 00 00
 5.411626 1  1B0             Rx   d 8 05 20 50 06 00 00 05 26
 5.431717 1  1B0             Rx   d 8 05 20 50 06 00 00 06 57
 5.450668 1  1B0             Rx   d 8 05 20 50 06 00 00 07 78
 5.450905 1  114             Rx   d 8 11 00 00 00 00 00 00 00
 5.451150 1  1B2             Rx   d 8 3F 00 3F 3F 00 00 00 00
 5.451390 1  2E0             Rx   d 8 90 00 80 08 00 00 8B 56
 5.491879 1  1B0             Rx   d 8 05 20 50 06 00 00 09 CD
 5.500899 1  114             Rx   d 8 11 00 00 00 00 00 00 00
 5.501022 1  1B2             Rx   d 8 3F 00 3F 3F 00 00 00 00
 5.510623 1  1B0             Rx   d 8 05 20 50 06 00 00 0A BC
 5.510850 1  79B             Rx   d 8 06 50 03 00 32 00 C8 AA
 5.551138 1  1B0             Rx   d 8 05 20 50 06 00 00 0C 5E
 5.551264 1  114             Rx   d 8 11 00 00 00 00 00 00 00
 5.551490 1  1B2             Rx   d 8 3F 00 3F 3F 00 00 00 00
 5.570821 1  1B0             Rx   d 8 05 20 50 06 00 00 0D 71
 5.590584 1  1B0             Rx   d 8 05 20 50 06 00 00 0E 00
 5.600457 1  114             Rx   d 8 11 00 00 00 00 00 00 00
 5.600700 1  1B2             Rx   d 8 3F 00 3F 3F 00 00 00 00
 5.611600 1  1B0             Rx   d 8 05 20 50 06 00 00 0F 2F
 5.631967 1  1B0             Rx   d 8 05 20 50 06 00 00 00 B5
 5.650743 1  1B0             Rx   d 8 05 20 50 06 00 00 01 9A
 5.651082 1  114             Rx   d 8 11 00 00 00 00 00 00 00
 5.651199 1  1B2             Rx   d 8 3F 00 3F 3F 00 00 00 00
 5.651422 1  2E0             Rx   d 8 90 00 80 08 00 00 8D B4
 5.691966 1  1B0             Rx   d 8 05 20 50 06 00 00 03 C4
 5.700926 1  114             Rx   d 8 11 00 00 00 00 00 00 00
 5.701042 1  1B2             Rx   d 8 3F 00 3F 3F 00 00 00 00
 5.711974 1  1B0             Rx   d 8 05 20 50 06 00 00 04 09
 5.751035 1  1B0             Rx   d 8 05 20 50 06 00 00 06 57
 5.751275 1  114             Rx   d 8 11 00 00 00 00 00 00 00
 5.751521 1  1B2             Rx   d 8 3F 00 3F 3F 00 00 00 00
 5.751766 1  2E0             Rx   d 8 90 00 80 08 00 00 8E C5
 5.771972 1  1B0             Rx   d 8 05 20 50 06 00 00 07 78
 5.791966 1  1B0             Rx   d 8 05 20 50 06 00 00 08 E2
 5.800591 1  114             Rx   d 8 11 00 00 00 00 00 00 00
 5.811691 1  1B0             Rx   d 8 05 20 50 06 00 00 09 CD
 5.831790 1  1B0             Rx   d 8 05 20 50 06 00 00 0A BC
 5.851202 1  114             Rx   d 8 11 00 00 00 00 00 00 00
 5.851974 1  2E0             Rx   d 8 90 00 80 08 00 00 8F EA
 5.891922 1  1B0             Rx   d 8 05 20 50 06 00 00 0D 71
 5.900815 1  114             Rx   d 8 11 00 00 00 00 00 00 00
 5.901033 1  1B2             Rx   d 8 3F 00 3F 3F 00 00 00 00
 5.911967 1  1B0             Rx   d 8 05 20 50 06 00 00 0E 00
 5.951056 1  1B0             Rx   d 8 05 20 50 06 00 00 00 B5
 5.951298 1  114             Rx   d 8 11 00 00 00 00 00 00 00
 5.951543 1  1B2             Rx   d 8 3F 00 3F 3F 00 00 00 00
 5.951784 1  2E0             Rx   d 8 90 00 80 08 00 00 80 70
 5.970863 1  1B0             Rx   d 8 05 20 50 06 00 00 01 9A
 5.990736 1  1B0             Rx   d 8 05 20 50 06 00 00 02 EB
 6.000627 1  114             Rx   d 8 11 00 00 00 00 00 00 00
 6.000827 1  1B2             Rx   d 8 3F 00 3F 3F 00 00 00 00
 6.011981 1  1B0             Rx   d 8 05 20 50 06 00 00 03 C4
 6.031905 1  1B0             Rx   d 8 05 20 50 06 00 00 04 09
 6.050885 1  1B0             Rx   d 8 05 20 50 06 00 00 05 26
 6.051096 1  114             Rx   d 8 11 00 00 00 00 00 00 00
 6.051462 1  1B2             Rx   d 8 3F 00 3F 3F 00 00 00 00
 6.051977 1  2E0             Rx   d 8 90 00 80 08 00 00 81 5F
 6.100731 1  1B0             Rx   d 8 05 20 50 06 00 00 07 78
 6.100995 1  114             Rx   d 8 11 00 00 00 00 00 00 00
 6.101984 1  1B2             Rx   d 8 3F 00 3F 3F 00 00 00 00
 6.110808 1  1B0             Rx   d 8 05 20 50 06 00 00 08 E2
 6.130665 1  1B0             Rx   d 8 05 20 50 06 00 00 09 CD
 6.151246 1  1B0             Rx   d 8 05 20 50 06 00 00 0A BC
 6.151655 1  114             Rx   d 8 11 00 00 00 00 00 00 00
 6.152249 1  2E0             Rx   d 8 90 00 80 08 00 00 82 2E
 6.171025 1  1B0             Rx   d 8 05 20 50 06 00 00 0B 93
 6.191981 1  1B0             Rx   d 8 05 20 50 06 00 00 0C 5E
 6.200671 1  114             Rx   d 8 11 00 00 00 00 00 00 00
 6.211856 1  1B0             Rx   d 8 05 20 50 06 00 00 0D 71
 6.251057 1  1B0             Rx   d 8 05 20 50 06 00 00 0F 2F
 6.251794 1  114             Rx   d 8 11 00 00 00 00 00 00 00
 6.291992 1  1B0             Rx   d 8 05 20 50 06 00 00 01 9A
 6.300982 1  114             Rx   d 8 11 00 00 00 00 00 00 00
 6.330622 1  1B0             Rx   d 8 05 20 50 06 00 00 03 C4
 6.351135 1  1B0             Rx   d 8 05 20 50 06 00 00 04 09
 6.351344 1  114             Rx   d 8 11 00 00 00 00 00 00 00
 6.351586 1  1B2             Rx   d 8 3F 00 3F 3F 00 00 00 00
 6.351823 1  2E0             Rx   d 8 90 00 80 08 00 00 84 CC
 6.370916 1  1B0             Rx   d 8 05 20 50 06 00 00 05 26
 6.390688 1  1B0             Rx   d 8 05 20 50 06 00 00 06 57
 6.400526 1  114             Rx   d 8 11 00 00 00 00 00 00 00
 6.400770 1  1B2             Rx   d 8 3F 00 3F 3F 00 00 00 00
 6.411727 1  1B0             Rx   d 8 05 20 50 06 00 00 07 78
 6.450865 1  1B0             Rx   d 8 05 20 50 06 00 00 09 CD
 6.451111 1  114             Rx   d 8 11 00 00 00 00 00 00 00
 6.451580 1  1B2             Rx   d 8 3F 00 3F 3F 00 00 00 00
 6.501134 1  1B2             Rx   d 8 3F 00 3F 3F 00 00 00 00
 6.530612 1  1B0             Rx   d 8 05 20 50 06 00 00 0D 71
 6.591965 1  1B0             Rx   d 8 05 20 50 06 00 00 00 B5
 6.611966 1  1B0             Rx   d 8 05 20 50 06 00 00 01 9A
 6.650802 1  1B0             Rx   d 8 05 20 50 06 00 00 03 C4
 6.651029 1  114             Rx   d 8 11 00 00 00 00 00 00 00
 6.651374 1  1B2             Rx   d 8 3F 00 3F 3F 00 00 00 00
 6.651981 1  2E0             Rx   d 8 90 00 80 08 00 00 87 BD
 6.700999 1  114             Rx   d 8 11 00 00 00 00 00 00 00
 6.701140 1  1B2             Rx   d 8 3F 00 3F 3F 00 00 00 00
 6.731946 1  1B0             Rx   d 8 05 20 50 06 00 00 07 78
 6.770972 1  1B0             Rx   d 8 05 20 50 06 00 00 09 CD
 6.790740 1  1B0             Rx   d 8 05 20 50 06 00 00 0A BC
 6.800810 1  1B2             Rx   d 8 3F 00 3F 3F 00 00 00 00
 6.831972 1  1B0             Rx   d 8 05 20 50 06 00 00 0C 5E
 6.850827 1  1B0             Rx   d 8 05 20 50 06 00 00 0D 71
 6.851034 1  114             Rx   d 8 11 00 00 00 00 00 00 00
 6.851286 1  1B2             Rx   d 8 3F 00 3F 3F 00 00 00 00
 6.851520 1  2E0             Rx   d 8 90 00 80 08 00 00 89 08
 6.871588 1  1B0             Rx   d 8 05 20 50 06 00 00 0E 00
 6.892812 1  1B0             Rx   d 8 05 20 50 06 00 00 0F 2F
 6.900958 1  114             Rx   d 8 11 00 00 00 00 00 00 00
 6.901131 1  1B2             Rx   d 8 3F 00 3F 3F 00 00 00 00
 6.910807 1  1B0             Rx   d 8 05 20 50 06 00 00 00 B5
 6.930687 1  1B0             Rx   d 8 05 20 50 06 00 00 01 9A
 6.951185 1  1B0             Rx   d 8 05 20 50 06 00 00 02 EB
 6.951368 1  114             Rx   d 8 11 00 00 00 00 00 00 00
 6.951976 1  1B2             Rx   d 8 3F 00 3F 3F 00 00 00 00
 7.021975 1  79B             Rx   d 8 06 50 03 00 32 00 C8 AA
 7.131981 1  1B0             Rx   d 8 05 20 50 06 00 00 0B 93
 7.161992 1  2E0             Rx   d 8 90 00 80 08 00 00 8C 9B
 7.211980 1  1B0             Rx   d 8 05 20 50 06 00 00 0F 2F
 7.271799 1  1B0             Rx   d 8 05 20 50 06 00 00 02 EB
 7.292322 1  1B0             Rx   d 8 05 20 50 06 00 00 03 C4
 7.301115 1  114             Rx   d 8 11 00 00 00 00 00 00 00
 7.330715 1  1B0             Rx   d 8 05 20 50 06 00 00 05 26
 7.371973 1  1B0             Rx   d 8 05 20 50 06 00 00 07 78
 7.400855 1  114             Rx   d 8 11 00 00 00 00 00 00 00
 7.451093 1  114             Rx   d 8 11 00 00 00 00 00 00 00
 7.451301 1  1B2             Rx   d 8 3F 00 3F 3F 00 00 00 00
 7.451541 1  2E0             Rx   d 8 90 00 80 08 00 00 8F EA
 7.511967 1  79B             Rx   d 8 06 50 03 00 32 00 C8 AA
 7.601967 1  1B2             Rx   d 8 3F 00 3F 3F 00 00 00 00
 7.692057 1  1B0             Rx   d 8 05 20 50 06 00 00 07 78
 7.801979 1  1B2             Rx   d 8 3F 00 3F 3F 00 00 00 00
 7.850879 1  1B0             Rx   d 8 05 20 50 06 00 00 0F 2F
 7.851348 1  1B2             Rx   d 8 3F 00 3F 3F 00 00 00 00
 7.851591 1  2E0             Rx   d 8 90 00 80 08 00 00 83 01
 7.910966 1  1B0             Rx   d 8 05 20 50 06 00 00 02 EB
 7.951544 1  114             Rx   d 8 11 00 00 00 00 00 00 00
 7.951970 1  1B2             Rx   d 8 3F 00 3F 3F 00 00 00 00
 7.990850 1  1B0             Rx   d 8 05 20 50 06 00 00 06 57
 8.012200 1  79B             Rx   d 8 06 50 03 00 32 00 C8 AA
 8.051424 1  1B0             Rx   d 8 05 20 50 06 00 00 09 CD
 8.051670 1  2E0             Rx   d 8 90 00 80 08 00 00 85 E3
 8.092218 1  1B0             Rx   d 8 05 20 50 06 00 00 0B 93
 8.111976 1  1B0             Rx   d 8 05 20 50 06 00 00 0C 5E
 8.171641 1  1B0             Rx   d 8 05 20 50 06 00 00 0F 2F
 8.190955 1  1B0             Rx   d 8 05 20 50 06 00 00 00 B5
 8.201974 1  1B2             Rx   d 8 3F 00 3F 3F 00 00 00 00
 8.211983 1  1B0             Rx   d 8 05 20 50 06 00 00 01 9A
 8.271839 1  1B0             Rx   d 8 05 20 50 06 00 00 04 09
 8.292283 1  1B0             Rx   d 8 05 20 50 06 00 00 05 26
 8.301219 1  114             Rx   d 8 11 00 00 00 00 00 00 00
 8.301748 1  1B2             Rx   d 8 3F 00 3F 3F 00 00 00 00
 8.311070 1  1B0             Rx   d 8 05 20 50 06 00 00 06 57
 8.330817 1  1B0             Rx   d 8 05 20 50 06 00 00 07 78
 8.351382 1  1B0             Rx   d 8 05 20 50 06 00 00 08 E2
 8.351633 1  114             Rx   d 8 11 00 00 00 00 00 00 00
 8.351872 1  1B2             Rx   d 8 3F 00 3F 3F 00 00 00 00
 8.356429 1  2E0             Rx   d 8 90 00 80 08 00 00 88 27
 8.371149 1  1B0             Rx   d 8 05 20 50 06 00 00 09 CD
 8.391987 1  1B0             Rx   d 8 05 20 50 06 00 00 0A BC
 8.401988 1  1B2             Rx   d 8 3F 00 3F 3F 00 00 00 00
 8.431972 1  1B0             Rx   d 8 05 20 50 06 00 00 0C 5E
 8.450923 1  1B0             Rx   d 8 05 20 50 06 00 00 0D 71
 8.451477 1  114             Rx   d 8 11 00 00 00 00 00 00 00
 8.451655 1  2E0             Rx   d 8 90 00 80 08 00 00 89 08
 8.471707 1  1B0             Rx   d 8 05 20 50 06 00 00 0E 00
 8.492136 1  1B0             Rx   d 8 05 20 50 06 00 00 0F 2F
 8.501049 1  114             Rx   d 8 11 00 00 00 00 00 00 00
 8.511966 1  1B0             Rx   d 8 05 20 50 06 00 00 00 B5
 8.520854 1  79B             Rx   d 8 06 50 03 00 32 00 C8 AA
 8.530759 1  1B0             Rx   d 8 05 20 50 06 00 00 01 9A
 8.551263 1  1B0             Rx   d 8 05 20 50 06 00 00 02 EB
 8.551542 1  114             Rx   d 8 11 00 00 00 00 00 00 00
 8.551893 1  1B2             Rx   d 8 3F 00 3F 3F 00 00 00 00
 8.553588 1  2E0             Rx   d 8 90 00 80 08 00 00 8A 79
 8.571968 1  1B0             Rx   d 8 05 20 50 06 00 00 03 C4
 8.590889 1  1B0             Rx   d 8 05 20 50 06 00 00 04 09
 8.600847 1  114             Rx   d 8 11 00 00 00 00 00 00 00
 8.611968 1  1B0             Rx   d 8 05 20 50 06 00 00 05 26
 8.651188 1  114             Rx   d 8 11 00 00 00 00 00 00 00
 8.651766 1  1B2             Rx   d 8 3F 00 3F 3F 00 00 00 00
 8.692125 1  1B0             Rx   d 8 05 20 50 06 00 00 09 CD
 8.711966 1  1B0             Rx   d 8 05 20 50 06 00 00 0A BC
 8.751572 1  114             Rx   d 8 11 00 00 00 00 00 00 00
 8.751911 1  1B2             Rx   d 8 3F 00 3F 3F 00 00 00 00
 8.811905 1  1B0             Rx   d 8 05 20 50 06 00 00 0F 2F
 8.892175 1  1B0             Rx   d 8 05 20 50 06 00 00 03 C4
 8.911051 1  1B0             Rx   d 8 05 20 50 06 00 00 04 09
 8.971150 1  1B0             Rx   d 8 05 20 50 06 00 00 07 78
 9.021977 1  79B             Rx   d 8 06 50 03 00 32 00 C8 AA
 9.051684 1  1B2             Rx   d 8 3F 00 3F 3F 00 00 00 00
 9.051770 1  2E0             Rx   d 8 90 00 80 08 00 00 8F EA
 9.092291 1  1B0             Rx   d 8 05 20 50 06 00 00 0D 71
 9.152283 1  114             Rx   d 8 11 00 00 00 00 00 00 00
 9.213157 1  1B0             Rx   d 8 05 20 50 06 00 00 03 C4
 9.251818 1  2E0             Rx   d 8 90 00 80 08 00 00 81 5F
 9.293930 1  1B0             Rx   d 8 05 20 50 06 00 00 07 78
 9.311199 1  1B0             Rx   d 8 05 20 50 06 00 00 08 E2
 9.330902 1  1B0             Rx   d 8 05 20 50 06 00 00 09 CD
 9.351449 1  1B0             Rx   d 8 05 20 50 06 00 00 0A BC
 9.351620 1  114             Rx   d 8 11 00 00 00 00 00 00 00
 9.351890 1  1B2             Rx   d 8 3F 00 3F 3F 00 00 00 00
 9.352158 1  2E0             Rx   d 8 90 00 80 08 00 00 82 2E
 9.371248 1  1B0             Rx   d 8 05 20 50 06 00 00 0B 93
 9.391979 1  1B0             Rx   d 8 05 20 50 06 00 00 0C 5E
 9.400916 1  114             Rx   d 8 11 00 00 00 00 00 00 00
 9.401969 1  1B2             Rx   d 8 3F 00 3F 3F 00 00 00 00
 9.411972 1  1B0             Rx   d 8 05 20 50 06 00 00 0D 71
 9.471967 1  1B0             Rx   d 8 05 20 50 06 00 00 00 B5
 9.511965 1  1B0             Rx   d 8 05 20 50 06 00 00 02 EB
 9.551910 1  1B2             Rx   d 8 3F 00 3F 3F 00 00 00 00
 9.591966 1  1B0             Rx   d 8 05 20 50 06 00 00 06 57
 9.611966 1  1B0             Rx   d 8 05 20 50 06 00 00 07 78
 9.651521 1  1B2             Rx   d 8 3F 00 3F 3F 00 00 00 00
 9.701143 1  114             Rx   d 8 11 00 00 00 00 00 00 00
 9.701343 1  1B2             Rx   d 8 3F 00 3F 3F 00 00 00 00
 9.751623 1  1B0             Rx   d 8 05 20 50 06 00 00 0E 00
 9.752400 1  1B2             Rx   d 8 3F 00 3F 3F 00 00 00 00
 9.791017 1  1B0             Rx   d 8 05 20 50 06 00 00 00 B5
 9.812054 1  1B0             Rx   d 8 05 20 50 06 00 00 01 9A
 9.871967 1  1B0             Rx   d 8 05 20 50 06 00 00 04 09
 9.901443 1  1B2             Rx   d 8 3F 00 3F 3F 00 00 00 00
 9.951909 1  1B2             Rx   d 8 3F 00 3F 3F 00 00 00 00
 9.952140 1  2E0             Rx   d 8 90 00 80 08 00 00 88 27
 10.001967 1  1B2             Rx   d 8 3F 00 3F 3F 00 00 00 00
 10.051878 1  114             Rx   d 8 11 00 00 00 00 00 00 00
 10.152167 1  114             Rx   d 8 11 00 00 00 00 00 00 00
 10.152333 1  2E0             Rx   d 8 90 00 80 08 00 00 8A 79
 10.171476 1  1B0             Rx   d 8 05 20 50 06 00 00 03 C4
 10.201315 1  1B2             Rx   d 8 3F 00 3F 3F 00 00 00 00
 10.221989 1  1B0             Rx   d 8 05 20 50 06 00 00 05 26
 10.251887 1  2E0             Rx   d 8 90 00 80 08 00 00 8B 56
 10.292396 1  1B0             Rx   d 8 05 20 50 06 00 00 09 CD
 10.311292 1  1B0             Rx   d 8 05 20 50 06 00 00 0A BC
 10.351969 1  1B2             Rx   d 8 3F 00 3F 3F 00 00 00 00
 10.352194 1  2E0             Rx   d 8 90 00 80 08 00 00 8C 9B
 10.391057 1  1B0             Rx   d 8 05 20 50 06 00 00 0E 00
 10.421965 1  1B0             Rx   d 8 05 20 50 06 00 00 0F 2F
 10.451563 1  1B2             Rx   d 8 3F 00 3F 3F 00 00 00 00
 10.451970 1  2E0             Rx   d 8 90 00 80 08 00 00 8D B4
 10.501442 1  1B2             Rx   d 8 3F 00 3F 3F 00 00 00 00
 10.521967 1  79B             Rx   d 8 06 50 03 00 32 00 C8 AA
 10.551736 1  114             Rx   d 8 11 00 00 00 00 00 00 00
 10.551923 1  1B2             Rx   d 8 3F 00 3F 3F 00 00 00 00
